hour,t(sec),"P1 (kW)","Q1 (kvar)","P2 (kW)","Q2 (kvar)","P3 (kW)","Q3 (kvar)","P4 (kW)","Q4 (kvar)"
0, 60.00000, 0.144641, 20.3696, 0.183344, 20.3961, 0.141079, 20.4163, 0, 0
0, 120.00000, 0.14464, 20.3696, 0.183343, 20.3961, 0.141078, 20.4163, 0, 0
0, 180.00000, 0.177215, 20.4129, 0.183344, 20.3961, 0.1949, 20.4098, 0, 0
0, 240.00000, 0.14464, 20.3696, 0.183343, 20.3961, 0.141078, 20.4163, 0, 0
0, 300.00000, 0.177215, 20.4129, 0.183344, 20.3961, 0.1949, 20.4098, 0, 0
0, 360.00000, 0.14464, 20.3696, 0.183343, 20.3961, 0.141078, 20.4163, 0, 0
0, 420.00000, 0.177215, 20.4129, 0.183344, 20.3961, 0.1949, 20.4098, 0, 0
0, 480.00000, 0.14464, 20.3696, 0.183343, 20.3961, 0.141078, 20.4163, 0, 0
0, 540.00000, 0.177215, 20.4129, 0.183344, 20.3961, 0.1949, 20.4098, 0, 0
0, 600.00000, 0.14464, 20.3696, 0.183343, 20.3961, 0.141078, 20.4163, 0, 0
0, 660.00000, 0.177215, 20.4129, 0.183344, 20.3961, 0.1949, 20.4098, 0, 0
0, 720.00000, 0.14464, 20.3696, 0.183343, 20.3961, 0.141078, 20.4163, 0, 0
0, 780.00000, 0.177215, 20.4129, 0.183344, 20.3961, 0.1949, 20.4098, 0, 0
0, 840.00000, 0.14464, 20.3696, 0.183343, 20.3961, 0.141078, 20.4163, 0, 0
0, 900.00000, 0.152784, 20.3804, 0.183344, 20.3961, 0.154534, 20.4147, 0, 0
0, 960.00000, 0.14464, 20.3696, 0.183343, 20.3961, 0.141078, 20.4163, 0, 0
0, 1020.00000, 0.152784, 20.3804, 0.183344, 20.3961, 0.154534, 20.4147, 0, 0
0, 1080.00000, 0.14464, 20.3696, 0.183343, 20.3961, 0.141078, 20.4163, 0, 0
0, 1140.00000, 0.152784, 20.3804, 0.183344, 20.3961, 0.154534, 20.4147, 0, 0
0, 1200.00000, 0.14464, 20.3696, 0.183343, 20.3961, 0.141078, 20.4163, 0, 0
0, 1260.00000, 0.152784, 20.3804, 0.183344, 20.3961, 0.154534, 20.4147, 0, 0
0, 1320.00000, 0.14464, 20.3696, 0.183343, 20.3961, 0.141078, 20.4163, 0, 0
0, 1380.00000, 0.152784, 20.3804, 0.183344, 20.3961, 0.154534, 20.4147, 0, 0
0, 1440.00000, 0.14464, 20.3696, 0.183343, 20.3961, 0.141078, 20.4163, 0, 0
0, 1500.00000, 0.152784, 20.3804, 0.183344, 20.3961, 0.154534, 20.4147, 0, 0
0, 1560.00000, 0.14464, 20.3696, 0.183343, 20.3961, 0.141078, 20.4163, 0, 0
0, 1620.00000, 0.146676, 20.3723, 0.183344, 20.3961, 0.144443, 20.4159, 0, 0
0, 1680.00000, 0.14464, 20.3696, 0.183343, 20.3961, 0.141078, 20.4163, 0, 0
0, 1740.00000, 0.146676, 20.3723, 0.183344, 20.3961, 0.144443, 20.4159, 0, 0
0, 1800.00000, 0.14464, 20.3696, 0.183343, 20.3961, 0.141078, 20.4163, 0, 0
0, 1860.00000, 0.146676, 20.3723, 0.183344, 20.3961, 0.144443, 20.4159, 0, 0
0, 1920.00000, 0.14464, 20.3696, 0.183343, 20.3961, 0.141078, 20.4163, 0, 0
0, 1980.00000, 0.146676, 20.3723, 0.183344, 20.3961, 0.144443, 20.4159, 0, 0
0, 2040.00000, 0.14464, 20.3696, 0.183343, 20.3961, 0.141078, 20.4163, 0, 0
0, 2100.00000, 0.146676, 20.3723, 0.183344, 20.3961, 0.144443, 20.4159, 0, 0
0, 2160.00000, 0.14464, 20.3696, 0.183343, 20.3961, 0.141078, 20.4163, 0, 0
0, 2220.00000, 0.146676, 20.3723, 0.183344, 20.3961, 0.144443, 20.4159, 0, 0
0, 2280.00000, 0.14464, 20.3696, 0.183343, 20.3961, 0.141078, 20.4163, 0, 0
0, 2340.00000, 0.14515, 20.3703, 0.183344, 20.3961, 0.14192, 20.4162, 0, 0
0, 2400.00000, 0.14464, 20.3696, 0.183343, 20.3961, 0.141078, 20.4163, 0, 0
0, 2460.00000, 0.14515, 20.3703, 0.183344, 20.3961, 0.14192, 20.4162, 0, 0
0, 2520.00000, 0.14464, 20.3696, 0.183343, 20.3961, 0.141078, 20.4163, 0, 0
0, 2580.00000, 0.14515, 20.3703, 0.183344, 20.3961, 0.14192, 20.4162, 0, 0
0, 2640.00000, 0.14464, 20.3696, 0.183343, 20.3961, 0.141078, 20.4163, 0, 0
0, 2700.00000, 0.14515, 20.3703, 0.183344, 20.3961, 0.14192, 20.4162, 0, 0
0, 2760.00000, 0.14464, 20.3696, 0.183343, 20.3961, 0.141078, 20.4163, 0, 0
0, 2820.00000, 0.14515, 20.3703, 0.183344, 20.3961, 0.14192, 20.4162, 0, 0
0, 2880.00000, 0.14464, 20.3696, 0.183343, 20.3961, 0.141078, 20.4163, 0, 0
0, 2940.00000, 0.14515, 20.3703, 0.183344, 20.3961, 0.14192, 20.4162, 0, 0
0, 3000.00000, 0.14464, 20.3696, 0.183343, 20.3961, 0.141078, 20.4163, 0, 0
0, 3060.00000, 0.144768, 20.3698, 0.183344, 20.3961, 0.141289, 20.4163, 0, 0
0, 3120.00000, 0.14464, 20.3696, 0.183343, 20.3961, 0.141078, 20.4163, 0, 0
0, 3180.00000, 0.144768, 20.3698, 0.183344, 20.3961, 0.141289, 20.4163, 0, 0
0, 3240.00000, 0.14464, 20.3696, 0.183343, 20.3961, 0.141078, 20.4163, 0, 0
0, 3300.00000, 0.144768, 20.3698, 0.183344, 20.3961, 0.141289, 20.4163, 0, 0
0, 3360.00000, 0.14464, 20.3696, 0.183343, 20.3961, 0.141078, 20.4163, 0, 0
0, 3420.00000, 0.144768, 20.3698, 0.183344, 20.3961, 0.141289, 20.4163, 0, 0
0, 3480.00000, 0.14464, 20.3696, 0.183343, 20.3961, 0.141078, 20.4163, 0, 0
0, 3540.00000, 0.144768, 20.3698, 0.183344, 20.3961, 0.141289, 20.4163, 0, 0
1, 0.00000, 0.14464, 20.3696, 0.183343, 20.3961, 0.141078, 20.4163, 0, 0
1, 60.00000, 0.144768, 20.3698, 0.183344, 20.3961, 0.141289, 20.4163, 0, 0
1, 120.00000, 0.14464, 20.3696, 0.183343, 20.3961, 0.141078, 20.4163, 0, 0
1, 180.00000, 0.144672, 20.3696, 0.183344, 20.3961, 0.141131, 20.4163, 0, 0
1, 240.00000, 0.14464, 20.3696, 0.183343, 20.3961, 0.141078, 20.4163, 0, 0
1, 300.00000, 0.144672, 20.3696, 0.183344, 20.3961, 0.141131, 20.4163, 0, 0
1, 360.00000, 0.14464, 20.3696, 0.183343, 20.3961, 0.141078, 20.4163, 0, 0
1, 420.00000, 0.144672, 20.3696, 0.183344, 20.3961, 0.141131, 20.4163, 0, 0
1, 480.00000, 0.14464, 20.3696, 0.183343, 20.3961, 0.141078, 20.4163, 0, 0
1, 540.00000, 0.144672, 20.3696, 0.183344, 20.3961, 0.141131, 20.4163, 0, 0
1, 600.00000, 0.14464, 20.3696, 0.183343, 20.3961, 0.141078, 20.4163, 0, 0
1, 660.00000, 0.144672, 20.3696, 0.183344, 20.3961, 0.141131, 20.4163, 0, 0
1, 720.00000, 0.14464, 20.3696, 0.183343, 20.3961, 0.141078, 20.4163, 0, 0
1, 780.00000, 0.144672, 20.3696, 0.183344, 20.3961, 0.141131, 20.4163, 0, 0
1, 840.00000, 0.14464, 20.3696, 0.183343, 20.3961, 0.141078, 20.4163, 0, 0
1, 900.00000, 0.144649, 20.3696, 0.183344, 20.3961, 0.141092, 20.4163, 0, 0
1, 960.00000, 0.14464, 20.3696, 0.183343, 20.3961, 0.141078, 20.4163, 0, 0
1, 1020.00000, 0.144649, 20.3696, 0.183344, 20.3961, 0.141092, 20.4163, 0, 0
1, 1080.00000, 0.14464, 20.3696, 0.183343, 20.3961, 0.141078, 20.4163, 0, 0
1, 1140.00000, 0.144649, 20.3696, 0.183344, 20.3961, 0.141092, 20.4163, 0, 0
1, 1200.00000, 0.14464, 20.3696, 0.183343, 20.3961, 0.141078, 20.4163, 0, 0
1, 1260.00000, 0.144649, 20.3696, 0.183344, 20.3961, 0.141092, 20.4163, 0, 0
1, 1320.00000, 0.14464, 20.3696, 0.183343, 20.3961, 0.141078, 20.4163, 0, 0
1, 1380.00000, 0.144649, 20.3696, 0.183344, 20.3961, 0.141092, 20.4163, 0, 0
1, 1440.00000, 0.14464, 20.3696, 0.183343, 20.3961, 0.141078, 20.4163, 0, 0
1, 1500.00000, 0.144649, 20.3696, 0.183344, 20.3961, 0.141092, 20.4163, 0, 0
1, 1560.00000, 0.14464, 20.3696, 0.183343, 20.3961, 0.141078, 20.4163, 0, 0
1, 1620.00000, 0.144643, 20.3696, 0.183344, 20.3961, 0.141082, 20.4163, 0, 0
1, 1680.00000, 0.14464, 20.3696, 0.183343, 20.3961, 0.141078, 20.4163, 0, 0
1, 1740.00000, 0.144643, 20.3696, 0.183344, 20.3961, 0.141082, 20.4163, 0, 0
1, 1800.00000, 0.14464, 20.3696, 0.183343, 20.3961, 0.141078, 20.4163, 0, 0
1, 1860.00000, 0.144643, 20.3696, 0.183344, 20.3961, 0.141082, 20.4163, 0, 0
1, 1920.00000, 0.14464, 20.3696, 0.183343, 20.3961, 0.141078, 20.4163, 0, 0
1, 1980.00000, 0.144643, 20.3696, 0.183344, 20.3961, 0.141082, 20.4163, 0, 0
1, 2040.00000, 0.14464, 20.3696, 0.183343, 20.3961, 0.141078, 20.4163, 0, 0
1, 2100.00000, 0.144643, 20.3696, 0.183344, 20.3961, 0.141082, 20.4163, 0, 0
1, 2160.00000, 0.14464, 20.3696, 0.183343, 20.3961, 0.141078, 20.4163, 0, 0
1, 2220.00000, 0.144643, 20.3696, 0.183344, 20.3961, 0.141082, 20.4163, 0, 0
1, 2280.00000, 0.14464, 20.3696, 0.183343, 20.3961, 0.141078, 20.4163, 0, 0
1, 2340.00000, 0.144641, 20.3696, 0.183344, 20.3961, 0.14108, 20.4163, 0, 0
1, 2400.00000, 0.14464, 20.3696, 0.183343, 20.3961, 0.141078, 20.4163, 0, 0
1, 2460.00000, 0.144641, 20.3696, 0.183344, 20.3961, 0.14108, 20.4163, 0, 0
1, 2520.00000, 0.14464, 20.3696, 0.183343, 20.3961, 0.141078, 20.4163, 0, 0
1, 2580.00000, 0.144641, 20.3696, 0.183344, 20.3961, 0.14108, 20.4163, 0, 0
1, 2640.00000, 0.14464, 20.3696, 0.183343, 20.3961, 0.141078, 20.4163, 0, 0
1, 2700.00000, 0.144641, 20.3696, 0.183344, 20.3961, 0.14108, 20.4163, 0, 0
1, 2760.00000, 0.14464, 20.3696, 0.183343, 20.3961, 0.141078, 20.4163, 0, 0
1, 2820.00000, 0.144641, 20.3696, 0.183344, 20.3961, 0.14108, 20.4163, 0, 0
1, 2880.00000, 0.14464, 20.3696, 0.183343, 20.3961, 0.141078, 20.4163, 0, 0
1, 2940.00000, 0.144641, 20.3696, 0.183344, 20.3961, 0.14108, 20.4163, 0, 0
1, 3000.00000, 0.14464, 20.3696, 0.183343, 20.3961, 0.141078, 20.4163, 0, 0
1, 3060.00000, 0.144641, 20.3696, 0.183344, 20.3961, 0.141079, 20.4163, 0, 0
1, 3120.00000, 0.14464, 20.3696, 0.183343, 20.3961, 0.141078, 20.4163, 0, 0
1, 3180.00000, 0.144641, 20.3696, 0.183344, 20.3961, 0.141079, 20.4163, 0, 0
1, 3240.00000, 0.14464, 20.3696, 0.183343, 20.3961, 0.141078, 20.4163, 0, 0
1, 3300.00000, 0.144641, 20.3696, 0.183344, 20.3961, 0.141079, 20.4163, 0, 0
1, 3360.00000, 0.14464, 20.3696, 0.183343, 20.3961, 0.141078, 20.4163, 0, 0
1, 3420.00000, 0.144641, 20.3696, 0.183344, 20.3961, 0.141079, 20.4163, 0, 0
1, 3480.00000, 0.14464, 20.3696, 0.183343, 20.3961, 0.141078, 20.4163, 0, 0
1, 3540.00000, 0.144641, 20.3696, 0.183344, 20.3961, 0.141079, 20.4163, 0, 0
2, 0.00000, 0.14464, 20.3696, 0.183343, 20.3961, 0.141078, 20.4163, 0, 0
2, 60.00000, 0.144641, 20.3696, 0.183344, 20.3961, 0.141079, 20.4163, 0, 0
2, 120.00000, 0.14464, 20.3696, 0.183343, 20.3961, 0.141078, 20.4163, 0, 0
2, 180.00000, 0.177035, 20.4127, 0.183344, 20.3961, 0.194603, 20.4098, 0, 0
2, 240.00000, 0.14464, 20.3696, 0.183343, 20.3961, 0.141078, 20.4163, 0, 0
2, 300.00000, 0.177035, 20.4127, 0.183344, 20.3961, 0.194603, 20.4098, 0, 0
2, 360.00000, 0.14464, 20.3696, 0.183343, 20.3961, 0.141078, 20.4163, 0, 0
2, 420.00000, 0.177035, 20.4127, 0.183344, 20.3961, 0.194603, 20.4098, 0, 0
2, 480.00000, 0.14464, 20.3696, 0.183343, 20.3961, 0.141078, 20.4163, 0, 0
2, 540.00000, 0.177035, 20.4127, 0.183344, 20.3961, 0.194603, 20.4098, 0, 0
2, 600.00000, 0.14464, 20.3696, 0.183343, 20.3961, 0.141078, 20.4163, 0, 0
2, 660.00000, 0.177035, 20.4127, 0.183344, 20.3961, 0.194603, 20.4098, 0, 0
2, 720.00000, 0.14464, 20.3696, 0.183343, 20.3961, 0.141078, 20.4163, 0, 0
2, 780.00000, 0.177036, 20.4127, 0.183345, 20.3961, 0.194604, 20.4098, 0, 0
2, 840.00000, 0.14464, 20.3696, 0.183343, 20.3961, 0.141078, 20.4163, 0, 0
2, 900.00000, 0.152741, 20.3804, 0.183345, 20.3961, 0.154461, 20.4147, 0, 0
2, 960.00000, 0.14464, 20.3696, 0.183343, 20.3961, 0.141078, 20.4163, 0, 0
2, 1020.00000, 0.152741, 20.3804, 0.183345, 20.3961, 0.154461, 20.4147, 0, 0
2, 1080.00000, 0.14464, 20.3696, 0.183343, 20.3961, 0.141078, 20.4163, 0, 0
2, 1140.00000, 0.152741, 20.3804, 0.183345, 20.3961, 0.154461, 20.4147, 0, 0
2, 1200.00000, 0.14464, 20.3696, 0.183343, 20.3961, 0.141078, 20.4163, 0, 0
2, 1260.00000, 0.152741, 20.3804, 0.183345, 20.3961, 0.154461, 20.4147, 0, 0
2, 1320.00000, 0.14464, 20.3696, 0.183343, 20.3961, 0.141078, 20.4163, 0, 0
2, 1380.00000, 0.152741, 20.3804, 0.183345, 20.3961, 0.154461, 20.4147, 0, 0
2, 1440.00000, 0.14464, 20.3696, 0.183343, 20.3961, 0.141078, 20.4163, 0, 0
2, 1500.00000, 0.152746, 20.3804, 0.18335, 20.3961, 0.154466, 20.4147, 0, 0
2, 1560.00000, 0.14464, 20.3696, 0.183343, 20.3961, 0.141078, 20.4163, 0, 0
2, 1620.00000, 0.146672, 20.3723, 0.18335, 20.3961, 0.144431, 20.4159, 0, 0
2, 1680.00000, 0.14464, 20.3696, 0.183343, 20.3961, 0.141078, 20.4163, 0, 0
2, 1740.00000, 0.146672, 20.3723, 0.18335, 20.3961, 0.144431, 20.4159, 0, 0
2, 1800.00000, 0.14464, 20.3696, 0.183343, 20.3961, 0.141078, 20.4163, 0, 0
2, 1860.00000, 0.146672, 20.3723, 0.18335, 20.3961, 0.144431, 20.4159, 0, 0
2, 1920.00000, 0.14464, 20.3696, 0.183343, 20.3961, 0.141078, 20.4163, 0, 0
2, 1980.00000, 0.146672, 20.3723, 0.18335, 20.3961, 0.144431, 20.4159, 0, 0
2, 2040.00000, 0.14464, 20.3696, 0.183343, 20.3961, 0.141078, 20.4163, 0, 0
2, 2100.00000, 0.146672, 20.3723, 0.18335, 20.3961, 0.144431, 20.4159, 0, 0
2, 2160.00000, 0.14464, 20.3696, 0.183343, 20.3961, 0.141078, 20.4163, 0, 0
2, 2220.00000, 0.146692, 20.3723, 0.183371, 20.3961, 0.144451, 20.416, 0, 0
2, 2280.00000, 0.14464, 20.3696, 0.183343, 20.3961, 0.141078, 20.4163, 0, 0
2, 2340.00000, 0.145174, 20.3703, 0.183371, 20.3961, 0.141942, 20.4163, 0, 0
2, 2400.00000, 0.14464, 20.3696, 0.183343, 20.3961, 0.141078, 20.4163, 0, 0
2, 2460.00000, 0.145174, 20.3703, 0.183371, 20.3961, 0.141942, 20.4163, 0, 0
2, 2520.00000, 0.14464, 20.3696, 0.183343, 20.3961, 0.141078, 20.4163, 0, 0
2, 2580.00000, 0.145174, 20.3703, 0.183371, 20.3961, 0.141942, 20.4163, 0, 0
2, 2640.00000, 0.14464, 20.3696, 0.183343, 20.3961, 0.141078, 20.4163, 0, 0
2, 2700.00000, 0.145174, 20.3703, 0.183371, 20.3961, 0.141942, 20.4163, 0, 0
2, 2760.00000, 0.14464, 20.3696, 0.183343, 20.3961, 0.141078, 20.4163, 0, 0
2, 2820.00000, 0.145174, 20.3703, 0.183371, 20.3961, 0.141942, 20.4163, 0, 0
2, 2880.00000, 0.14464, 20.3696, 0.183343, 20.3961, 0.141078, 20.4163, 0, 0
2, 2940.00000, 0.145256, 20.3703, 0.183453, 20.3961, 0.142025, 20.4163, 0, 0
2, 3000.00000, 0.14464, 20.3696, 0.183343, 20.3961, 0.141078, 20.4163, 0, 0
2, 3060.00000, 0.144877, 20.3698, 0.183453, 20.3961, 0.141398, 20.4164, 0, 0
2, 3120.00000, 0.14464, 20.3696, 0.183343, 20.3961, 0.141078, 20.4163, 0, 0
2, 3180.00000, 0.144877, 20.3698, 0.183453, 20.3961, 0.141398, 20.4164, 0, 0
2, 3240.00000, 0.14464, 20.3696, 0.183343, 20.3961, 0.141078, 20.4163, 0, 0
2, 3300.00000, 0.144877, 20.3698, 0.183453, 20.3961, 0.141398, 20.4164, 0, 0
2, 3360.00000, 0.14464, 20.3696, 0.183343, 20.3961, 0.141078, 20.4163, 0, 0
2, 3420.00000, 0.144877, 20.3698, 0.183453, 20.3961, 0.141398, 20.4164, 0, 0
2, 3480.00000, 0.14464, 20.3696, 0.183343, 20.3961, 0.141078, 20.4163, 0, 0
2, 3540.00000, 0.144877, 20.3698, 0.183453, 20.3961, 0.141398, 20.4164, 0, 0
3, 0.00000, 0.14464, 20.3696, 0.183343, 20.3961, 0.141078, 20.4163, 0, 0
3, 60.00000, 0.145207, 20.37, 0.183783, 20.3962, 0.141728, 20.4165, 0, 0
3, 120.00000, 0.14464, 20.3696, 0.183343, 20.3961, 0.141078, 20.4163, 0, 0
3, 180.00000, 0.145112, 20.3698, 0.183783, 20.3962, 0.141571, 20.4165, 0, 0
3, 240.00000, 0.14464, 20.3696, 0.183343, 20.3961, 0.141078, 20.4163, 0, 0
3, 300.00000, 0.145112, 20.3698, 0.183783, 20.3962, 0.141571, 20.4165, 0, 0
3, 360.00000, 0.14464, 20.3696, 0.183343, 20.3961, 0.141078, 20.4163, 0, 0
3, 420.00000, 0.145112, 20.3698, 0.183783, 20.3962, 0.141571, 20.4165, 0, 0
3, 480.00000, 0.14464, 20.3696, 0.183343, 20.3961, 0.141078, 20.4163, 0, 0
3, 540.00000, 0.145112, 20.3698, 0.183783, 20.3962, 0.141571, 20.4165, 0, 0
3, 600.00000, 0.14464, 20.3696, 0.183343, 20.3961, 0.141078, 20.4163, 0, 0
3, 660.00000, 0.145112, 20.3698, 0.183783, 20.3962, 0.141571, 20.4165, 0, 0
3, 720.00000, 0.14464, 20.3696, 0.183343, 20.3961, 0.141078, 20.4163, 0, 0
3, 780.00000, 0.146432, 20.3704, 0.185103, 20.3968, 0.142891, 20.4171, 0, 0
3, 840.00000, 0.14464, 20.3696, 0.183343, 20.3961, 0.141078, 20.4163, 0, 0
3, 900.00000, 0.146408, 20.3704, 0.185103, 20.3968, 0.142852, 20.4171, 0, 0
3, 960.00000, 0.14464, 20.3696, 0.183343, 20.3961, 0.141078, 20.4163, 0, 0
3, 1020.00000, 0.146408, 20.3704, 0.185103, 20.3968, 0.142852, 20.4171, 0, 0
3, 1080.00000, 0.14464, 20.3696, 0.183343, 20.3961, 0.141078, 20.4163, 0, 0
3, 1140.00000, 0.146408, 20.3704, 0.185103, 20.3968, 0.142852, 20.4171, 0, 0
3, 1200.00000, 0.14464, 20.3696, 0.183343, 20.3961, 0.141078, 20.4163, 0, 0
3, 1260.00000, 0.146408, 20.3704, 0.185103, 20.3968, 0.142852, 20.4171, 0, 0
3, 1320.00000, 0.14464, 20.3696, 0.183343, 20.3961, 0.141078, 20.4163, 0, 0
3, 1380.00000, 0.146408, 20.3704, 0.185103, 20.3968, 0.142852, 20.4171, 0, 0
3, 1440.00000, 0.14464, 20.3696, 0.183343, 20.3961, 0.141078, 20.4163, 0, 0
3, 1500.00000, 0.151689, 20.3726, 0.190384, 20.3991, 0.148132, 20.4193, 0, 0
3, 1560.00000, 0.14464, 20.3696, 0.183343, 20.3961, 0.141078, 20.4163, 0, 0
3, 1620.00000, 0.151683, 20.3726, 0.190384, 20.3991, 0.148122, 20.4193, 0, 0
3, 1680.00000, 0.14464, 20.3696, 0.183343, 20.3961, 0.141078, 20.4163, 0, 0
3, 1740.00000, 0.151683, 20.3726, 0.190384, 20.3991, 0.148122, 20.4193, 0, 0
3, 1800.00000, 0.14464, 20.3696, 0.183343, 20.3961, 0.141078, 20.4163, 0, 0
3, 1860.00000, 0.151683, 20.3726, 0.190384, 20.3991, 0.148122, 20.4193, 0, 0
3, 1920.00000, 0.14464, 20.3696, 0.183343, 20.3961, 0.141078, 20.4163, 0, 0
3, 1980.00000, 0.151683, 20.3726, 0.190384, 20.3991, 0.148122, 20.4193, 0, 0
3, 2040.00000, 0.14464, 20.3696, 0.183343, 20.3961, 0.141078, 20.4163, 0, 0
3, 2100.00000, 0.151683, 20.3726, 0.190384, 20.3991, 0.148122, 20.4193, 0, 0
3, 2160.00000, 0.14464, 20.3696, 0.183343, 20.3961, 0.141078, 20.4163, 0, 0
3, 2220.00000, 0.172805, 20.3816, 0.211506, 20.4081, 0.169244, 20.4283, 0, 0
3, 2280.00000, 0.14464, 20.3696, 0.183343, 20.3961, 0.141078, 20.4163, 0, 0
3, 2340.00000, 0.172803, 20.3816, 0.211506, 20.4081, 0.169242, 20.4283, 0, 0
3, 2400.00000, 0.14464, 20.3696, 0.183343, 20.3961, 0.141078, 20.4163, 0, 0
3, 2460.00000, 0.172803, 20.3816, 0.211506, 20.4081, 0.169242, 20.4283, 0, 0
3, 2520.00000, 0.14464, 20.3696, 0.183343, 20.3961, 0.141078, 20.4163, 0, 0
3, 2580.00000, 0.172803, 20.3816, 0.211506, 20.4081, 0.169242, 20.4283, 0, 0
3, 2640.00000, 0.14464, 20.3696, 0.183343, 20.3961, 0.141078, 20.4163, 0, 0
3, 2700.00000, 0.172803, 20.3816, 0.211506, 20.4081, 0.169242, 20.4283, 0, 0
3, 2760.00000, 0.14464, 20.3696, 0.183343, 20.3961, 0.141078, 20.4163, 0, 0
3, 2820.00000, 0.172803, 20.3816, 0.211506, 20.4081, 0.169242, 20.4283, 0, 0
3, 2880.00000, 0.14464, 20.3696, 0.183343, 20.3961, 0.141078, 20.4163, 0, 0
3, 2940.00000, 0.257291, 20.4176, 0.295994, 20.444, 0.25373, 20.4643, 0, 0
3, 3000.00000, 0.14464, 20.3696, 0.183343, 20.3961, 0.141078, 20.4163, 0, 0
3, 3060.00000, 0.257291, 20.4176, 0.295994, 20.444, 0.253729, 20.4643, 0, 0
3, 3120.00000, 0.14464, 20.3696, 0.183343, 20.3961, 0.141078, 20.4163, 0, 0
3, 3180.00000, 0.257291, 20.4176, 0.295994, 20.444, 0.253729, 20.4643, 0, 0
3, 3240.00000, 0.14464, 20.3696, 0.183343, 20.3961, 0.141078, 20.4163, 0, 0
3, 3300.00000, 0.257291, 20.4176, 0.295994, 20.444, 0.253729, 20.4643, 0, 0
3, 3360.00000, 0.14464, 20.3696, 0.183343, 20.3961, 0.141078, 20.4163, 0, 0
3, 3420.00000, 0.257291, 20.4176, 0.295994, 20.444, 0.253729, 20.4643, 0, 0
3, 3480.00000, 0.14464, 20.3696, 0.183343, 20.3961, 0.141078, 20.4163, 0, 0
3, 3540.00000, 0.257291, 20.4176, 0.295994, 20.444, 0.253729, 20.4643, 0, 0
4, 0.00000, 0.14464, 20.3696, 0.183343, 20.3961, 0.141078, 20.4163, 0, 0
4, 60.00000, 0.144641, 20.3696, 0.183344, 20.3961, 0.141079, 20.4163, 0, 0
4, 120.00000, 0.14464, 20.3696, 0.183343, 20.3961, 0.141078, 20.4163, 0, 0
4, 180.00000, 0.144641, 20.3696, 0.183344, 20.3961, 0.141079, 20.4163, 0, 0
4, 240.00000, 0.14464, 20.3696, 0.183343, 20.3961, 0.141078, 20.4163, 0, 0
4, 300.00000, 0.144641, 20.3696, 0.183344, 20.3961, 0.141079, 20.4163, 0, 0
4, 360.00000, 0.14464, 20.3696, 0.183343, 20.3961, 0.141078, 20.4163, 0, 0
4, 420.00000, 0.144641, 20.3696, 0.183344, 20.3961, 0.141079, 20.4163, 0, 0
4, 480.00000, 0.14464, 20.3696, 0.183343, 20.3961, 0.141078, 20.4163, 0, 0
4, 540.00000, 0.144641, 20.3696, 0.183344, 20.3961, 0.141079, 20.4163, 0, 0
4, 600.00000, 0.14464, 20.3696, 0.183343, 20.3961, 0.141078, 20.4163, 0, 0
4, 660.00000, 0.144641, 20.3696, 0.183344, 20.3961, 0.141079, 20.4163, 0, 0
4, 720.00000, 0.14464, 20.3696, 0.183343, 20.3961, 0.141078, 20.4163, 0, 0
4, 780.00000, 0.144642, 20.3696, 0.183345, 20.3961, 0.14108, 20.4163, 0, 0
4, 840.00000, 0.14464, 20.3696, 0.183343, 20.3961, 0.141078, 20.4163, 0, 0
4, 900.00000, 0.144642, 20.3696, 0.183345, 20.3961, 0.14108, 20.4163, 0, 0
4, 960.00000, 0.14464, 20.3696, 0.183343, 20.3961, 0.141078, 20.4163, 0, 0
4, 1020.00000, 0.144642, 20.3696, 0.183345, 20.3961, 0.14108, 20.4163, 0, 0
4, 1080.00000, 0.14464, 20.3696, 0.183343, 20.3961, 0.141078, 20.4163, 0, 0
4, 1140.00000, 0.144642, 20.3696, 0.183345, 20.3961, 0.14108, 20.4163, 0, 0
4, 1200.00000, 0.14464, 20.3696, 0.183343, 20.3961, 0.141078, 20.4163, 0, 0
4, 1260.00000, 0.144642, 20.3696, 0.183345, 20.3961, 0.14108, 20.4163, 0, 0
4, 1320.00000, 0.14464, 20.3696, 0.183343, 20.3961, 0.141078, 20.4163, 0, 0
